Logging started @ 2026-07-08 09:11
DLL Compiled: Oct  9 2018 15:48:11

Firmware: J-Link V9 compiled Aug 23 2018 09:45:44
Hardware: V9.60
S/N: 69663728
Feature(s): RDI, GDB, FlashDL, FlashBP, JFlash
TELNET listener socket opened on port 19021WEBSRV 
Starting webserver (0019ms, 0021ms total)
T4CD0 000:002 WEBSRV Webserver running on local port 19081 (0019ms, 0021ms total)
T4CD0 000:002   returns O.K. (0019ms, 0021ms total)
T4CD0 000:022 JLINK_ExecCommand("ProjectFile = E:\0999-devlop\longqiu-k60\24_LQ_K60DN_─Ė░Õ▓Ō╩į\LQ_K60DN_─Ė░Õ▓Ō╩į\settings\LQ_K60_Debug.jlink", ...). Device "MK60DN512XXX10" selected.  returns 0x00 (0002ms, 0023ms total)
T4CD0 000:024 JLINK_ExecCommand("device = MK60DN512Zxxx10", ...). Device "MK60DN512XXX10" selected.  returns 0x00 (0001ms, 0024ms total)
T4CD0 000:025 JLINK_GetDLLVersion()  returns 63408 (0000ms, 0024ms total)
T4CD0 000:025 JLINK_GetCompileDateTime() (0000ms, 0024ms total)
T4CD0 000:025 JLINK_GetFirmwareString(...) (0000ms, 0024ms total)
T4CD0 000:025 JLINK_TIF_Select(JLINKARM_TIF_SWD)  returns 0x00 (0002ms, 0026ms total)
T4CD0 000:027 JLINK_SelectDeviceFamily(14) (0000ms, 0026ms total)
T4CD0 000:027 JLINK_SetSpeed(1000) (0000ms, 0026ms total)
T4CD0 000:028 JLINK_ExecCommand("SetResetType = 0", ...).   returns 0x00 (0000ms, 0026ms total)
T4CD0 000:028 JLINK_ExecCommand("SetResetPulseLen = 200", ...).   returns 0x14 (0000ms, 0026ms total)
T4CD0 000:028 JLINK_SetResetDelay(0) (0000ms, 0026ms total)
T4CD0 000:028 JLINK_ResetPullsRESET(ON) (0000ms, 0026ms total)
T4CD0 000:028 JLINK_Reset()InitTarget() >0x10B TIF>Found SW-DP with ID 0x2BA01477 >0x0D TIF> >0x28 TIF> >0x0D TIF> >0x28 TIF> >0x0D TIF> >0x28 TIF> >0x0D TIF> >0x28 TIF> >0x0D TIF> >0x21 TIF> >0x0D TIF> >0x28 TIF>Scanning AP map to find all available APs >0x0D TIF> >0x28 TIF> >0x0D TIF> >0x21 TIF> >0x0D TIF> >0x21 TIF> >0x0D TIF> >0x28 TIF> >0x0D TIF> >0x21 TIF> >0x0D TIF> >0x21 TIF> >0x0D TIF> >0x28 TIF> >0x0D TIF> >0x21 TIF> >0x0D TIF> >0x21 TIF>AP[2]: Stopped AP scan as end of AP map has been reached
AP[0]: AHB-AP (IDR: 0x24770011)AP[1]: JTAG-AP (IDR: 0x001C0000)Iterating through AP map to find AHB-AP to use >0x42 TIF> >0x28 TIF> >0x0D TIF> >0x28 TIF> >0x0D TIF> >0x21 TIF> >0x0D TIF> >0x21 TIF> >0x42 TIF> >0x28 TIF> >0x0D TIF> >0x28 TIF> >0x0D TIF> >0x28 TIF> >0x0D TIF> >0x21 TIF> >0x0D TIF> >0x21 TIF>AP[0]: Core foundAP[0]: AHB-AP ROM base: 0xE00FF000 >0x0D TIF> >0x28 TIF> >0x0D TIF> >0x28 TIF> >0x0D TIF> >0x28 TIF> >0x0D TIF> >0x21 TIF> >0x0D TIF> >0x21 TIF>
CPUID register: 0x410FC240. Implementer code: 0x41 (ARM)Found Cortex-M4 r0p0, Little endian. -- Max. mem block: 0x00010D70 -- CPU_ReadMem(4 bytes @ 0xE000EDF0) -- CPU_WriteMem(4 bytes @ 0xE000EDF0) -- CPU_ReadMem(4 bytes @ 0xE0002000)FPUnit: 6 code (BP) slots and 2 literal slots -- CPU_ReadMem(4 bytes @ 0xE000EDFC) -- CPU_WriteMem(4 bytes @ 0xE000EDFC) -- CPU_ReadMem(4 bytes @ 0xE0001000) -- CPU_WriteMem(4 bytes @ 0xE0001000) -- CPU_ReadMem(4 bytes @ 0xE000ED88) -- CPU_WriteMem(4 bytes @ 0xE000ED88)
 -- CPU_ReadMem(4 bytes @ 0xE000ED88) -- CPU_WriteMem(4 bytes @ 0xE000ED88)CoreSight components:ROMTbl[0] @ E00FF000 -- CPU_ReadMem(16 bytes @ 0xE00FF000) -- CPU_ReadMem(16 bytes @ 0xE000EFF0) -- CPU_ReadMem(16 bytes @ 0xE000EFE0)ROMTbl[0][0]: E000E000, CID: B105E00D, PID: 000BB000 SCS -- CPU_ReadMem(16 bytes @ 0xE0001FF0) -- CPU_ReadMem(16 bytes @ 0xE0001FE0)ROMTbl[0][1]: E0001000, CID: B105E00D, PID: 003BB002 DWT -- CPU_ReadMem(16 bytes @ 0xE0002FF0) -- CPU_ReadMem(16 bytes @ 0xE0002FE0)
ROMTbl[0][2]: E0002000, CID: B105E00D, PID: 002BB003 FPB -- CPU_ReadMem(16 bytes @ 0xE0000FF0) -- CPU_ReadMem(16 bytes @ 0xE0000FE0)ROMTbl[0][3]: E0000000, CID: B105E00D, PID: 003BB001 ITM -- CPU_ReadMem(16 bytes @ 0xE00FF010) -- CPU_ReadMem(16 bytes @ 0xE0040FF0) -- CPU_ReadMem(16 bytes @ 0xE0040FE0)ROMTbl[0][4]: E0040000, CID: B105900D, PID: 000BB9A1 TPIU -- CPU_ReadMem(16 bytes @ 0xE0041FF0) -- CPU_ReadMem(16 bytes @ 0xE0041FE0)ROMTbl[0][5]: E0041000, CID: B105900D, PID: 000BB925 ETM
 -- CPU_ReadMem(16 bytes @ 0xE0042FF0) -- CPU_ReadMem(16 bytes @ 0xE0042FE0)ROMTbl[0][6]: E0042000, CID: B105900D, PID: 003BB907 ETB -- CPU_ReadMem(16 bytes @ 0xE0043FF0) -- CPU_ReadMem(16 bytes @ 0xE0043FE0)ROMTbl[0][7]: E0043000, CID: B105900D, PID: 001BB908 CSTF -- CPU_ReadMem(16 bytes @ 0xE00FF020) -- CPU is running -- CPU_WriteMem(4 bytes @ 0xE000EDF0) -- CPU is running -- CPU_WriteMem(4 bytes @ 0xE000EDFC)Reset: Halt core after reset via DEMCR.VC_CORERESET. >0x35 TIF>
Reset: Reset device via AIRCR.SYSRESETREQ. -- CPU is running -- CPU_WriteMem(4 bytes @ 0xE000ED0C) >0x0D TIF> >0x28 TIF> -- CPU_ReadMem(4 bytes @ 0xE000EDF0) -- CPU_ReadMem(4 bytes @ 0xE000EDF0) -- CPU is running -- CPU_WriteMem(4 bytes @ 0xE000EDF0) -- CPU is running -- CPU_WriteMem(4 bytes @ 0xE000EDFC) -- CPU_ReadMem(4 bytes @ 0xE000EDF0)AfterResetTarget() -- CPU_WriteMem(4 bytes @ 0xE0002000) -- CPU_ReadMem(4 bytes @ 0xE000EDFC) -- CPU_ReadMem(4 bytes @ 0xE0001000) (0336ms, 0362ms total)
T4CD0 000:365 JLINK_IsHalted()  returns TRUE (0000ms, 0362ms total)
T4CD0 000:365 JLINK_Halt()  returns 0x00 (0000ms, 0362ms total)
T4CD0 000:365 JLINK_ReadMemU32(0xE000ED00, 0x0001 Items, ...) -- CPU_ReadMem(4 bytes @ 0xE000ED00) - Data: 40 C2 0F 41  returns 1 (0000ms, 0362ms total)
T4CD0 000:365 JLINK_ReadMemU32(0xE00FF000, 0x0001 Items, ...) -- CPU_ReadMem(4 bytes @ 0xE00FF000) - Data: 03 F0 F0 FF  returns 1 (0001ms, 0363ms total)
T4CD0 000:366 JLINK_ReadMemU32(0xE00FF004, 0x0001 Items, ...) -- CPU_ReadMem(4 bytes @ 0xE00FF004) - Data: 03 20 F0 FF  returns 1 (0001ms, 0364ms total)
T4CD0 000:367 JLINK_ReadMemU32(0xE00FF008, 0x0001 Items, ...) -- CPU_ReadMem(4 bytes @ 0xE00FF008) - Data: 03 30 F0 FF  returns 1 (0001ms, 0365ms total)
T4CD0 000:368 JLINK_ReadMemU32(0xE00FF00C, 0x0001 Items, ...) -- CPU_ReadMem(4 bytes @ 0xE00FF00C) - Data: 03 10 F0 FF  returns 1 (0001ms, 0366ms total)
T4CD0 000:369 JLINK_ReadMemU32(0xE00FF010, 0x0001 Items, ...) -- CPU_ReadMem(4 bytes @ 0xE00FF010) - Data: 03 10 F4 FF  returns 1 (0001ms, 0367ms total)
T4CD0 000:370 JLINK_ReadMemU32(0xE00FF014, 0x0001 Items, ...) -- CPU_ReadMem(4 bytes @ 0xE00FF014) - Data: 03 20 F4 FF  returns 1 (0000ms, 0367ms total)
T4CD0 000:370 JLINK_ReadMemU32(0xE00FF018, 0x0001 Items, ...) -- CPU_ReadMem(4 bytes @ 0xE00FF018) - Data: 03 30 F4 FF  returns 1 (0001ms, 0368ms total)
T4CD0 000:371 JLINK_ReadMemU32(0xE00FF01C, 0x0001 Items, ...) -- CPU_ReadMem(4 bytes @ 0xE00FF01C) - Data: 03 40 F4 FF  returns 1 (0001ms, 0369ms total)
T4CD0 000:372 JLINK_ReadMemU32(0xE00FFFD0, 0x0001 Items, ...) -- CPU_ReadMem(4 bytes @ 0xE00FFFD0) - Data: 04 00 00 00  returns 1 (0001ms, 0370ms total)
T4CD0 000:373 JLINK_ReadMemU32(0xE00FFFD4, 0x0001 Items, ...) -- CPU_ReadMem(4 bytes @ 0xE00FFFD4) - Data: 00 00 00 00  returns 1 (0001ms, 0371ms total)
T4CD0 000:374 JLINK_ReadMemU32(0xE00FFFD8, 0x0001 Items, ...) -- CPU_ReadMem(4 bytes @ 0xE00FFFD8) - Data: 00 00 00 00  returns 1 (0000ms, 0371ms total)
T4CD0 000:375 JLINK_ReadMemU32(0xE00FFFDC, 0x0001 Items, ...) -- CPU_ReadMem(4 bytes @ 0xE00FFFDC) - Data: 00 00 00 00  returns 1 (0000ms, 0372ms total)
T4CD0 000:375 JLINK_ReadMemU32(0xE00FFFE0, 0x0001 Items, ...) -- CPU_ReadMem(4 bytes @ 0xE00FFFE0) - Data: C4 00 00 00  returns 1 (0001ms, 0373ms total)
T4CD0 000:376 JLINK_ReadMemU32(0xE00FFFE4, 0x0001 Items, ...) -- CPU_ReadMem(4 bytes @ 0xE00FFFE4) - Data: B4 00 00 00  returns 1 (0001ms, 0374ms total)
T4CD0 000:377 JLINK_ReadMemU32(0xE00FFFE8, 0x0001 Items, ...) -- CPU_ReadMem(4 bytes @ 0xE00FFFE8) - Data: 0B 00 00 00  returns 1 (0001ms, 0375ms total)
T4CD0 000:378 JLINK_ReadMemU32(0xE00FFFEC, 0x0001 Items, ...) -- CPU_ReadMem(4 bytes @ 0xE00FFFEC) - Data: 00 00 00 00  returns 1 (0001ms, 0376ms total)
T4CD0 000:379 JLINK_ReadMemU32(0xE00FFFF0, 0x0001 Items, ...) -- CPU_ReadMem(4 bytes @ 0xE00FFFF0) - Data: 0D 00 00 00  returns 1 (0000ms, 0376ms total)
T4CD0 000:379 JLINK_ReadMemU32(0xE00FFFF4, 0x0001 Items, ...) -- CPU_ReadMem(4 bytes @ 0xE00FFFF4) - Data: 10 00 00 00  returns 1 (0001ms, 0377ms total)
T4CD0 000:380 JLINK_ReadMemU32(0xE00FFFF8, 0x0001 Items, ...) -- CPU_ReadMem(4 bytes @ 0xE00FFFF8) - Data: 05 00 00 00  returns 1 (0001ms, 0378ms total)
T4CD0 000:381 JLINK_ReadMemU32(0xE00FFFFC, 0x0001 Items, ...) -- CPU_ReadMem(4 bytes @ 0xE00FFFFC) - Data: B1 00 00 00  returns 1 (0001ms, 0379ms total)
T4CD0 000:382 JLINK_ReadMemU32(0xE000EFD0, 0x0001 Items, ...) -- CPU_ReadMem(4 bytes @ 0xE000EFD0) - Data: 04 00 00 00  returns 1 (0001ms, 0380ms total)
T4CD0 000:383 JLINK_ReadMemU32(0xE000EFD4, 0x0001 Items, ...) -- CPU_ReadMem(4 bytes @ 0xE000EFD4) - Data: 00 00 00 00  returns 1 (0001ms, 0381ms total)
T4CD0 000:384 JLINK_ReadMemU32(0xE000EFD8, 0x0001 Items, ...) -- CPU_ReadMem(4 bytes @ 0xE000EFD8) - Data: 00 00 00 00  returns 1 (0001ms, 0382ms total)
T4CD0 000:385 JLINK_ReadMemU32(0xE000EFDC, 0x0001 Items, ...) -- CPU_ReadMem(4 bytes @ 0xE000EFDC) - Data: 00 00 00 00  returns 1 (0000ms, 0382ms total)
T4CD0 000:385 JLINK_ReadMemU32(0xE000EFE0, 0x0001 Items, ...) -- CPU_ReadMem(4 bytes @ 0xE000EFE0) - Data: 00 00 00 00  returns 1 (0001ms, 0383ms total)
T4CD0 000:386 JLINK_ReadMemU32(0xE000EFE4, 0x0001 Items, ...) -- CPU_ReadMem(4 bytes @ 0xE000EFE4) - Data: B0 00 00 00  returns 1 (0001ms, 0384ms total)
T4CD0 000:387 JLINK_ReadMemU32(0xE000EFE8, 0x0001 Items, ...) -- CPU_ReadMem(4 bytes @ 0xE000EFE8) - Data: 0B 00 00 00  returns 1 (0001ms, 0385ms total)
T4CD0 000:388 JLINK_ReadMemU32(0xE000EFEC, 0x0001 Items, ...) -- CPU_ReadMem(4 bytes @ 0xE000EFEC) - Data: 00 00 00 00  returns 1 (0000ms, 0385ms total)
T4CD0 000:388 JLINK_ReadMemU32(0xE000EFF0, 0x0001 Items, ...) -- CPU_ReadMem(4 bytes @ 0xE000EFF0) - Data: 0D 00 00 00  returns 1 (0001ms, 0386ms total)
T4CD0 000:389 JLINK_ReadMemU32(0xE000EFF4, 0x0001 Items, ...) -- CPU_ReadMem(4 bytes @ 0xE000EFF4) - Data: E0 00 00 00  returns 1 (0001ms, 0387ms total)
T4CD0 000:390 JLINK_ReadMemU32(0xE000EFF8, 0x0001 Items, ...) -- CPU_ReadMem(4 bytes @ 0xE000EFF8) - Data: 05 00 00 00  returns 1 (0001ms, 0388ms total)
T4CD0 000:391 JLINK_ReadMemU32(0xE000EFFC, 0x0001 Items, ...) -- CPU_ReadMem(4 bytes @ 0xE000EFFC) - Data: B1 00 00 00  returns 1 (0001ms, 0389ms total)
T4CD0 000:392 JLINK_ReadMemU32(0xE0001FD0, 0x0001 Items, ...) -- CPU_ReadMem(4 bytes @ 0xE0001FD0) - Data: 04 00 00 00  returns 1 (0001ms, 0390ms total)
T4CD0 000:393 JLINK_ReadMemU32(0xE0001FD4, 0x0001 Items, ...) -- CPU_ReadMem(4 bytes @ 0xE0001FD4) - Data: 00 00 00 00  returns 1 (0000ms, 0390ms total)
T4CD0 000:393 JLINK_ReadMemU32(0xE0001FD8, 0x0001 Items, ...) -- CPU_ReadMem(4 bytes @ 0xE0001FD8) - Data: 00 00 00 00  returns 1 (0002ms, 0392ms total)
T4CD0 000:395 JLINK_ReadMemU32(0xE0001FDC, 0x0001 Items, ...) -- CPU_ReadMem(4 bytes @ 0xE0001FDC) - Data: 00 00 00 00  returns 1 (0001ms, 0393ms total)
T4CD0 000:396 JLINK_ReadMemU32(0xE0001FE0, 0x0001 Items, ...) -- CPU_ReadMem(4 bytes @ 0xE0001FE0) - Data: 02 00 00 00  returns 1 (0001ms, 0394ms total)
T4CD0 000:397 JLINK_ReadMemU32(0xE0001FE4, 0x0001 Items, ...) -- CPU_ReadMem(4 bytes @ 0xE0001FE4) - Data: B0 00 00 00  returns 1 (0000ms, 0394ms total)
T4CD0 000:397 JLINK_ReadMemU32(0xE0001FE8, 0x0001 Items, ...) -- CPU_ReadMem(4 bytes @ 0xE0001FE8) - Data: 3B 00 00 00  returns 1 (0001ms, 0395ms total)
T4CD0 000:398 JLINK_ReadMemU32(0xE0001FEC, 0x0001 Items, ...) -- CPU_ReadMem(4 bytes @ 0xE0001FEC) - Data: 00 00 00 00  returns 1 (0001ms, 0396ms total)
T4CD0 000:399 JLINK_ReadMemU32(0xE0001FF0, 0x0001 Items, ...) -- CPU_ReadMem(4 bytes @ 0xE0001FF0) - Data: 0D 00 00 00  returns 1 (0001ms, 0397ms total)
T4CD0 000:400 JLINK_ReadMemU32(0xE0001FF4, 0x0001 Items, ...) -- CPU_ReadMem(4 bytes @ 0xE0001FF4) - Data: E0 00 00 00  returns 1 (0001ms, 0398ms total)
T4CD0 000:401 JLINK_ReadMemU32(0xE0001FF8, 0x0001 Items, ...) -- CPU_ReadMem(4 bytes @ 0xE0001FF8) - Data: 05 00 00 00  returns 1 (0001ms, 0399ms total)
T4CD0 000:402 JLINK_ReadMemU32(0xE0001FFC, 0x0001 Items, ...) -- CPU_ReadMem(4 bytes @ 0xE0001FFC) - Data: B1 00 00 00  returns 1 (0000ms, 0399ms total)
T4CD0 000:403 JLINK_ReadMemU32(0xE0002FD0, 0x0001 Items, ...) -- CPU_ReadMem(4 bytes @ 0xE0002FD0) - Data: 04 00 00 00  returns 1 (0000ms, 0400ms total)
T4CD0 000:403 JLINK_ReadMemU32(0xE0002FD4, 0x0001 Items, ...) -- CPU_ReadMem(4 bytes @ 0xE0002FD4) - Data: 00 00 00 00  returns 1 (0001ms, 0401ms total)
T4CD0 000:404 JLINK_ReadMemU32(0xE0002FD8, 0x0001 Items, ...) -- CPU_ReadMem(4 bytes @ 0xE0002FD8) - Data: 00 00 00 00  returns 1 (0001ms, 0402ms total)
T4CD0 000:405 JLINK_ReadMemU32(0xE0002FDC, 0x0001 Items, ...) -- CPU_ReadMem(4 bytes @ 0xE0002FDC) - Data: 00 00 00 00  returns 1 (0001ms, 0403ms total)
T4CD0 000:406 JLINK_ReadMemU32(0xE0002FE0, 0x0001 Items, ...) -- CPU_ReadMem(4 bytes @ 0xE0002FE0) - Data: 03 00 00 00  returns 1 (0001ms, 0404ms total)
T4CD0 000:407 JLINK_ReadMemU32(0xE0002FE4, 0x0001 Items, ...) -- CPU_ReadMem(4 bytes @ 0xE0002FE4) - Data: B0 00 00 00  returns 1 (0000ms, 0404ms total)
T4CD0 000:407 JLINK_ReadMemU32(0xE0002FE8, 0x0001 Items, ...) -- CPU_ReadMem(4 bytes @ 0xE0002FE8) - Data: 2B 00 00 00  returns 1 (0001ms, 0405ms total)
T4CD0 000:408 JLINK_ReadMemU32(0xE0002FEC, 0x0001 Items, ...) -- CPU_ReadMem(4 bytes @ 0xE0002FEC) - Data: 00 00 00 00  returns 1 (0001ms, 0406ms total)
T4CD0 000:409 JLINK_ReadMemU32(0xE0002FF0, 0x0001 Items, ...) -- CPU_ReadMem(4 bytes @ 0xE0002FF0) - Data: 0D 00 00 00  returns 1 (0001ms, 0407ms total)
T4CD0 000:410 JLINK_ReadMemU32(0xE0002FF4, 0x0001 Items, ...) -- CPU_ReadMem(4 bytes @ 0xE0002FF4) - Data: E0 00 00 00  returns 1 (0000ms, 0407ms total)
T4CD0 000:410 JLINK_ReadMemU32(0xE0002FF8, 0x0001 Items, ...) -- CPU_ReadMem(4 bytes @ 0xE0002FF8) - Data: 05 00 00 00  returns 1 (0001ms, 0408ms total)
T4CD0 000:411 JLINK_ReadMemU32(0xE0002FFC, 0x0001 Items, ...) -- CPU_ReadMem(4 bytes @ 0xE0002FFC) - Data: B1 00 00 00  returns 1 (0001ms, 0409ms total)
T4CD0 000:412 JLINK_ReadMemU32(0xE0000FD0, 0x0001 Items, ...) -- CPU_ReadMem(4 bytes @ 0xE0000FD0) - Data: 04 00 00 00  returns 1 (0001ms, 0410ms total)
T4CD0 000:413 JLINK_ReadMemU32(0xE0000FD4, 0x0001 Items, ...) -- CPU_ReadMem(4 bytes @ 0xE0000FD4) - Data: 00 00 00 00  returns 1 (0001ms, 0411ms total)
T4CD0 000:414 JLINK_ReadMemU32(0xE0000FD8, 0x0001 Items, ...) -- CPU_ReadMem(4 bytes @ 0xE0000FD8) - Data: 00 00 00 00  returns 1 (0000ms, 0411ms total)
T4CD0 000:414 JLINK_ReadMemU32(0xE0000FDC, 0x0001 Items, ...) -- CPU_ReadMem(4 bytes @ 0xE0000FDC) - Data: 00 00 00 00  returns 1 (0001ms, 0412ms total)
T4CD0 000:415 JLINK_ReadMemU32(0xE0000FE0, 0x0001 Items, ...) -- CPU_ReadMem(4 bytes @ 0xE0000FE0) - Data: 01 00 00 00  returns 1 (0001ms, 0413ms total)
T4CD0 000:416 JLINK_ReadMemU32(0xE0000FE4, 0x0001 Items, ...) -- CPU_ReadMem(4 bytes @ 0xE0000FE4) - Data: B0 00 00 00  returns 1 (0001ms, 0414ms total)
T4CD0 000:417 JLINK_ReadMemU32(0xE0000FE8, 0x0001 Items, ...) -- CPU_ReadMem(4 bytes @ 0xE0000FE8) - Data: 3B 00 00 00  returns 1 (0000ms, 0414ms total)
T4CD0 000:417 JLINK_ReadMemU32(0xE0000FEC, 0x0001 Items, ...) -- CPU_ReadMem(4 bytes @ 0xE0000FEC) - Data: 00 00 00 00  returns 1 (0001ms, 0415ms total)
T4CD0 000:418 JLINK_ReadMemU32(0xE0000FF0, 0x0001 Items, ...) -- CPU_ReadMem(4 bytes @ 0xE0000FF0) - Data: 0D 00 00 00  returns 1 (0001ms, 0416ms total)
T4CD0 000:419 JLINK_ReadMemU32(0xE0000FF4, 0x0001 Items, ...) -- CPU_ReadMem(4 bytes @ 0xE0000FF4) - Data: E0 00 00 00  returns 1 (0001ms, 0417ms total)
T4CD0 000:420 JLINK_ReadMemU32(0xE0000FF8, 0x0001 Items, ...) -- CPU_ReadMem(4 bytes @ 0xE0000FF8) - Data: 05 00 00 00  returns 1 (0001ms, 0418ms total)
T4CD0 000:421 JLINK_ReadMemU32(0xE0000FFC, 0x0001 Items, ...) -- CPU_ReadMem(4 bytes @ 0xE0000FFC) - Data: B1 00 00 00  returns 1 (0000ms, 0418ms total)
T4CD0 000:421 JLINK_ReadMemU32(0xE0040FD0, 0x0001 Items, ...) -- CPU_ReadMem(4 bytes @ 0xE0040FD0) - Data: 04 00 00 00  returns 1 (0001ms, 0419ms total)
T4CD0 000:422 JLINK_ReadMemU32(0xE0040FD4, 0x0001 Items, ...) -- CPU_ReadMem(4 bytes @ 0xE0040FD4) - Data: 00 00 00 00  returns 1 (0001ms, 0420ms total)
T4CD0 000:423 JLINK_ReadMemU32(0xE0040FD8, 0x0001 Items, ...) -- CPU_ReadMem(4 bytes @ 0xE0040FD8) - Data: 00 00 00 00  returns 1 (0001ms, 0421ms total)
T4CD0 000:424 JLINK_ReadMemU32(0xE0040FDC, 0x0001 Items, ...) -- CPU_ReadMem(4 bytes @ 0xE0040FDC) - Data: 00 00 00 00  returns 1 (0000ms, 0421ms total)
T4CD0 000:424 JLINK_ReadMemU32(0xE0040FE0, 0x0001 Items, ...) -- CPU_ReadMem(4 bytes @ 0xE0040FE0) - Data: A1 00 00 00  returns 1 (0001ms, 0422ms total)
T4CD0 000:425 JLINK_ReadMemU32(0xE0040FE4, 0x0001 Items, ...) -- CPU_ReadMem(4 bytes @ 0xE0040FE4) - Data: B9 00 00 00  returns 1 (0001ms, 0423ms total)
T4CD0 000:426 JLINK_ReadMemU32(0xE0040FE8, 0x0001 Items, ...) -- CPU_ReadMem(4 bytes @ 0xE0040FE8) - Data: 0B 00 00 00  returns 1 (0001ms, 0424ms total)
T4CD0 000:427 JLINK_ReadMemU32(0xE0040FEC, 0x0001 Items, ...) -- CPU_ReadMem(4 bytes @ 0xE0040FEC) - Data: 00 00 00 00  returns 1 (0001ms, 0425ms total)
T4CD0 000:428 JLINK_ReadMemU32(0xE0040FF0, 0x0001 Items, ...) -- CPU_ReadMem(4 bytes @ 0xE0040FF0) - Data: 0D 00 00 00  returns 1 (0000ms, 0425ms total)
T4CD0 000:428 JLINK_ReadMemU32(0xE0040FF4, 0x0001 Items, ...) -- CPU_ReadMem(4 bytes @ 0xE0040FF4) - Data: 90 00 00 00  returns 1 (0001ms, 0426ms total)
T4CD0 000:429 JLINK_ReadMemU32(0xE0040FF8, 0x0001 Items, ...) -- CPU_ReadMem(4 bytes @ 0xE0040FF8) - Data: 05 00 00 00  returns 1 (0001ms, 0427ms total)
T4CD0 000:430 JLINK_ReadMemU32(0xE0040FFC, 0x0001 Items, ...) -- CPU_ReadMem(4 bytes @ 0xE0040FFC) - Data: B1 00 00 00  returns 1 (0001ms, 0428ms total)
T4CD0 000:431 JLINK_ReadMemU32(0xE0041FD0, 0x0001 Items, ...) -- CPU_ReadMem(4 bytes @ 0xE0041FD0) - Data: 04 00 00 00  returns 1 (0001ms, 0429ms total)
T4CD0 000:432 JLINK_ReadMemU32(0xE0041FD4, 0x0001 Items, ...) -- CPU_ReadMem(4 bytes @ 0xE0041FD4) - Data: 00 00 00 00  returns 1 (0000ms, 0429ms total)
T4CD0 000:432 JLINK_ReadMemU32(0xE0041FD8, 0x0001 Items, ...) -- CPU_ReadMem(4 bytes @ 0xE0041FD8) - Data: 00 00 00 00  returns 1 (0001ms, 0430ms total)
T4CD0 000:433 JLINK_ReadMemU32(0xE0041FDC, 0x0001 Items, ...) -- CPU_ReadMem(4 bytes @ 0xE0041FDC) - Data: 00 00 00 00  returns 1 (0000ms, 0430ms total)
T4CD0 000:435 JLINK_ReadMemU32(0xE0041FE0, 0x0001 Items, ...) -- CPU_ReadMem(4 bytes @ 0xE0041FE0) - Data: 25 00 00 00  returns 1 (0000ms, 0432ms total)
T4CD0 000:435 JLINK_ReadMemU32(0xE0041FE4, 0x0001 Items, ...) -- CPU_ReadMem(4 bytes @ 0xE0041FE4) - Data: B9 00 00 00  returns 1 (0001ms, 0433ms total)
T4CD0 000:436 JLINK_ReadMemU32(0xE0041FE8, 0x0001 Items, ...) -- CPU_ReadMem(4 bytes @ 0xE0041FE8) - Data: 0B 00 00 00  returns 1 (0001ms, 0434ms total)
T4CD0 000:437 JLINK_ReadMemU32(0xE0041FEC, 0x0001 Items, ...) -- CPU_ReadMem(4 bytes @ 0xE0041FEC) - Data: 00 00 00 00  returns 1 (0001ms, 0435ms total)
T4CD0 000:438 JLINK_ReadMemU32(0xE0041FF0, 0x0001 Items, ...) -- CPU_ReadMem(4 bytes @ 0xE0041FF0) - Data: 0D 00 00 00  returns 1 (0000ms, 0435ms total)
T4CD0 000:438 JLINK_ReadMemU32(0xE0041FF4, 0x0001 Items, ...) -- CPU_ReadMem(4 bytes @ 0xE0041FF4) - Data: 90 00 00 00  returns 1 (0001ms, 0436ms total)
T4CD0 000:439 JLINK_ReadMemU32(0xE0041FF8, 0x0001 Items, ...) -- CPU_ReadMem(4 bytes @ 0xE0041FF8) - Data: 05 00 00 00  returns 1 (0001ms, 0437ms total)
T4CD0 000:440 JLINK_ReadMemU32(0xE0041FFC, 0x0001 Items, ...) -- CPU_ReadMem(4 bytes @ 0xE0041FFC) - Data: B1 00 00 00  returns 1 (0001ms, 0438ms total)
T4CD0 000:441 JLINK_ReadMemU32(0xE0042FD0, 0x0001 Items, ...) -- CPU_ReadMem(4 bytes @ 0xE0042FD0) - Data: 04 00 00 00  returns 1 (0001ms, 0439ms total)
T4CD0 000:442 JLINK_ReadMemU32(0xE0042FD4, 0x0001 Items, ...) -- CPU_ReadMem(4 bytes @ 0xE0042FD4) - Data: 00 00 00 00  returns 1 (0001ms, 0440ms total)
T4CD0 000:443 JLINK_ReadMemU32(0xE0042FD8, 0x0001 Items, ...) -- CPU_ReadMem(4 bytes @ 0xE0042FD8) - Data: 00 00 00 00  returns 1 (0001ms, 0441ms total)
T4CD0 000:444 JLINK_ReadMemU32(0xE0042FDC, 0x0001 Items, ...) -- CPU_ReadMem(4 bytes @ 0xE0042FDC) - Data: 00 00 00 00  returns 1 (0000ms, 0441ms total)
T4CD0 000:444 JLINK_ReadMemU32(0xE0042FE0, 0x0001 Items, ...) -- CPU_ReadMem(4 bytes @ 0xE0042FE0) - Data: 07 00 00 00  returns 1 (0001ms, 0442ms total)
T4CD0 000:445 JLINK_ReadMemU32(0xE0042FE4, 0x0001 Items, ...) -- CPU_ReadMem(4 bytes @ 0xE0042FE4) - Data: B9 00 00 00  returns 1 (0000ms, 0442ms total)
T4CD0 000:445 JLINK_ReadMemU32(0xE0042FE8, 0x0001 Items, ...) -- CPU_ReadMem(4 bytes @ 0xE0042FE8) - Data: 3B 00 00 00  returns 1 (0001ms, 0443ms total)
T4CD0 000:446 JLINK_ReadMemU32(0xE0042FEC, 0x0001 Items, ...) -- CPU_ReadMem(4 bytes @ 0xE0042FEC) - Data: 00 00 00 00  returns 1 (0001ms, 0444ms total)
T4CD0 000:447 JLINK_ReadMemU32(0xE0042FF0, 0x0001 Items, ...) -- CPU_ReadMem(4 bytes @ 0xE0042FF0) - Data: 0D 00 00 00  returns 1 (0001ms, 0445ms total)
T4CD0 000:448 JLINK_ReadMemU32(0xE0042FF4, 0x0001 Items, ...) -- CPU_ReadMem(4 bytes @ 0xE0042FF4) - Data: 90 00 00 00  returns 1 (0000ms, 0445ms total)
T4CD0 000:449 JLINK_ReadMemU32(0xE0042FF8, 0x0001 Items, ...) -- CPU_ReadMem(4 bytes @ 0xE0042FF8) - Data: 05 00 00 00  returns 1 (0000ms, 0446ms total)
T4CD0 000:449 JLINK_ReadMemU32(0xE0042FFC, 0x0001 Items, ...) -- CPU_ReadMem(4 bytes @ 0xE0042FFC) - Data: B1 00 00 00  returns 1 (0001ms, 0447ms total)
T4CD0 000:450 JLINK_ReadMemU32(0xE0043FD0, 0x0001 Items, ...) -- CPU_ReadMem(4 bytes @ 0xE0043FD0) - Data: 04 00 00 00  returns 1 (0001ms, 0448ms total)
T4CD0 000:451 JLINK_ReadMemU32(0xE0043FD4, 0x0001 Items, ...) -- CPU_ReadMem(4 bytes @ 0xE0043FD4) - Data: 00 00 00 00  returns 1 (0001ms, 0449ms total)
T4CD0 000:452 JLINK_ReadMemU32(0xE0043FD8, 0x0001 Items, ...) -- CPU_ReadMem(4 bytes @ 0xE0043FD8) - Data: 00 00 00 00  returns 1 (0000ms, 0449ms total)
T4CD0 000:452 JLINK_ReadMemU32(0xE0043FDC, 0x0001 Items, ...) -- CPU_ReadMem(4 bytes @ 0xE0043FDC) - Data: 00 00 00 00  returns 1 (0001ms, 0450ms total)
T4CD0 000:453 JLINK_ReadMemU32(0xE0043FE0, 0x0001 Items, ...) -- CPU_ReadMem(4 bytes @ 0xE0043FE0) - Data: 08 00 00 00  returns 1 (0002ms, 0452ms total)
T4CD0 000:455 JLINK_ReadMemU32(0xE0043FE4, 0x0001 Items, ...) -- CPU_ReadMem(4 bytes @ 0xE0043FE4) - Data: B9 00 00 00  returns 1 (0000ms, 0452ms total)
T4CD0 000:455 JLINK_ReadMemU32(0xE0043FE8, 0x0001 Items, ...) -- CPU_ReadMem(4 bytes @ 0xE0043FE8) - Data: 1B 00 00 00  returns 1 (0001ms, 0453ms total)
T4CD0 000:456 JLINK_ReadMemU32(0xE0043FEC, 0x0001 Items, ...) -- CPU_ReadMem(4 bytes @ 0xE0043FEC) - Data: 00 00 00 00  returns 1 (0001ms, 0454ms total)
T4CD0 000:457 JLINK_ReadMemU32(0xE0043FF0, 0x0001 Items, ...) -- CPU_ReadMem(4 bytes @ 0xE0043FF0) - Data: 0D 00 00 00  returns 1 (0001ms, 0455ms total)
T4CD0 000:458 JLINK_ReadMemU32(0xE0043FF4, 0x0001 Items, ...) -- CPU_ReadMem(4 bytes @ 0xE0043FF4) - Data: 90 00 00 00  returns 1 (0001ms, 0456ms total)
T4CD0 000:459 JLINK_ReadMemU32(0xE0043FF8, 0x0001 Items, ...) -- CPU_ReadMem(4 bytes @ 0xE0043FF8) - Data: 05 00 00 00  returns 1 (0000ms, 0456ms total)
T4CD0 000:459 JLINK_ReadMemU32(0xE0043FFC, 0x0001 Items, ...) -- CPU_ReadMem(4 bytes @ 0xE0043FFC) - Data: B1 00 00 00  returns 1 (0001ms, 0457ms total)
T4CD0 000:460 JLINK_GetEmuCaps()  returns 0xF9FF7BFF (0000ms, 0457ms total)
T4CD0 000:460 JLINK_GetEmuCaps()  returns 0xF9FF7BFF (0000ms, 0457ms total)
T4CD0 000:460 JLINK_GetEmuCaps()  returns 0xF9FF7BFF (0000ms, 0457ms total)
T4CD0 000:460 JLINK_GetEmuCaps()  returns 0xF9FF7BFF (0000ms, 0457ms total)
T4CD0 000:460 JLINK_GetEmuCaps()  returns 0xF9FF7BFF (0000ms, 0457ms total)
T4CD0 000:460 JLINK_GetEmuCaps()  returns 0xF9FF7BFF (0000ms, 0457ms total)
T4CD0 000:460 JLINK_GetEmuCaps()  returns 0xF9FF7BFF (0000ms, 0457ms total)
T4CD0 000:460 JLINK_GetEmuCaps()  returns 0xF9FF7BFF (0000ms, 0457ms total)
T4CD0 000:460 JLINK_GetEmuCaps()  returns 0xF9FF7BFF (0000ms, 0457ms total)
T4CD0 000:460 JLINK_GetEmuCaps()  returns 0xF9FF7BFF (0000ms, 0457ms total)
T4CD0 000:461 JLINK_ReadMemU32(0xE0041000, 0x0001 Items, ...) -- CPU_ReadMem(4 bytes @ 0xE0041000) - Data: 11 04 00 00  returns 1 (0000ms, 0457ms total)
T4CD0 000:462 JLINK_WriteU32(0xE0041000, 0x00000410) -- CPU_WriteMem(4 bytes @ 0xE0041000)  returns 0 (0000ms, 0458ms total)
T4CD0 000:462 JLINK_ReadMemU32(0xE0041004, 0x0001 Items, ...) -- CPU_ReadMem(4 bytes @ 0xE0041004) - Data: 00 20 80 8C  returns 1 (0001ms, 0459ms total)
T4CD0 000:463 JLINK_ReadMemU32(0xE00411E4, 0x0001 Items, ...) -- CPU_ReadMem(4 bytes @ 0xE00411E4) - Data: 50 F2 14 41  returns 1 (0001ms, 0460ms total)
T4CD0 000:464 JLINK_ReadMemU32(0xE0041014, 0x0001 Items, ...) -- CPU_ReadMem(4 bytes @ 0xE0041014) - Data: 09 0D 02 00  returns 1 (0001ms, 0461ms total)
T4CD0 000:465 JLINK_ReadMemU32(0xE000EDFC, 0x0001 Items, ...) -- CPU_ReadMem(4 bytes @ 0xE000EDFC) - Data: 00 00 00 01  returns 1 (0000ms, 0461ms total)
T4CD0 000:465 JLINK_WriteU32(0xE000EDFC, 0x01000000)  returns 0 (0000ms, 0461ms total)
T4CD0 000:465 JLINK_ReadMemU32(0xE0040000, 0x0001 Items, ...) -- CPU_ReadMem(4 bytes @ 0xE0040000) - Data: 0B 00 00 00  returns 1 (0001ms, 0462ms total)
T4CD0 000:466 JLINK_ReadMemU32(0xE0041000, 0x0001 Items, ...) -- CPU_ReadMem(4 bytes @ 0xE0041000) - Data: 11 04 00 00  returns 1 (0001ms, 0463ms total)
T4CD0 000:467 JLINK_WriteU32(0xE0041000, 0x00001411) -- CPU_WriteMem(4 bytes @ 0xE0041000)  returns 0 (0000ms, 0463ms total)
T4CD0 000:467 JLINK_ReadMemU32(0xE0041000, 0x0001 Items, ...) -- CPU_ReadMem(4 bytes @ 0xE0041000) - Data: 11 04 00 00  returns 1 (0001ms, 0464ms total)
T4CD0 000:468 JLINK_ReadMemU32(0xE0041000, 0x0001 Items, ...) -- CPU_ReadMem(4 bytes @ 0xE0041000) - Data: 11 04 00 00  returns 1 (0001ms, 0465ms total)
T4CD0 000:469 JLINK_WriteU32(0xE0041000, 0x011C041F) -- CPU_WriteMem(4 bytes @ 0xE0041000)  returns 0 (0001ms, 0466ms total)
T4CD0 000:470 JLINK_ReadMemU32(0xE0041000, 0x0001 Items, ...) -- CPU_ReadMem(4 bytes @ 0xE0041000) - Data: 11 04 00 00  returns 1 (0001ms, 0467ms total)
T4CD0 000:472 JLINK_SWO_Control(JLINKARM_SWO_CMD_GET_SPEED_INFO, ...)  returns 0x00 (0000ms, 0467ms total)
T4CD0 000:472 JLINK_ReadMemU32(0xE0001004, 0x0001 Items, ...) -- CPU_ReadMem(4 bytes @ 0xE0001004) - Data: C7 F6 68 DE  returns 1 (0001ms, 0468ms total)
T4CD0 000:473 JLINK_GetEmuCaps()  returns 0xF9FF7BFF (0000ms, 0468ms total)
T4CD0 000:473 JLINK_GetEmuCaps()  returns 0xF9FF7BFF (0000ms, 0468ms total)
T4CD0 000:473 JLINK_GetEmuCaps()  returns 0xF9FF7BFF (0000ms, 0468ms total)
T4CD0 000:473 JLINK_GetEmuCaps()  returns 0xF9FF7BFF (0000ms, 0468ms total)
T4CD0 000:473 JLINK_EMU_HasCapEx(0x00000025)  returns 0x00 (0000ms, 0468ms total)
T4CD0 000:473 JLINK_EMU_COM_Read(Channel = 0x10001, NumBytes = 0x0C) -- EMUCOM is not supported by connected emulator  returns 0xFFFFFFFF (0000ms, 0468ms total)
T4CD0 000:487 JLINK_GetSpeed()  returns 0x3E8 (0000ms, 0468ms total)
T4CD0 000:487 JLINK_SetMaxSpeed() (0001ms, 0469ms total)
T4CD0 000:503 JLINK_BeginDownload(Flags = 0x03) (0000ms, 0469ms total)
T4CD0 000:610 JLINK_WriteMem(0x00000000, 0x4000 Bytes, ...) - Data: F8 FF 00 20 11 04 00 00 0F 13 00 00 0F 13 00 00 ... -- Read from flash cache (16384 bytes @ 0x00000000)  returns 0x4000 (0000ms, 0469ms total)
T4CD0 000:611 JLINK_WriteMem(0x00004000, 0x12C4 Bytes, ...) - Data: 02 29 03 D1 11 21 41 48 00 F0 DB F8 7D E0 08 00 ... -- Read from flash cache (4804 bytes @ 0x00004000)  returns 0x12C4 (0000ms, 0470ms total)
T4CD0 000:611 JLINK_EndDownload() -- CPU_ReadMem(4 bytes @ 0xE000ED90) -- -------------------------------------- -- Start of determining dirty areas in flash cache -- End of determining dirty areas -- Start of preparing flash programming -- Calculating RAM usage -- RAM usage = 4060 Bytes -- Preserving CPU registers -- Preparing memory -- Preparing target -- Downloading RAMCode -- Checking target RAM -- Preparing RAMCode -- End of preparing flash programming -- CPU speed could not be measured.
 -- Start of comparing flash -- CRC check was estimated as fastest method -- Comparing range 0x0000 - 0x57FF (11 Sectors, 22 KB), using multi-block CRC calculation -- CRC does not match for sectors 4-5, 10 -- Comparing range 0x0000 - 0x1FFF (4 Sectors, 8 KB), using alternative multi-block CRC calculation -- All CRCs match -- Comparing range 0x3000 - 0x4FFF (4 Sectors, 8 KB), using alternative multi-block CRC calculation -- All CRCs match -- End of comparing flash -- Start of erasing sectors
 -- Erasing range 0x00002000 - 0x00002FFF (  2 Sectors, 4 KB) -- Erasing range 0x00005000 - 0x000057FF (  1 Sector, 2 KB) -- End of erasing sectors -- Start of flash programming -- Programming range 0x00002000 - 0x00002FFF (  2 Sectors, 4 KB) -- Programming range 0x00005000 - 0x000057FF (  1 Sector, 2 KB) -- End of flash programming -- 0x2000 - 0x2FFF (  2 Sectors, 4 KB) -- 0x5000 - 0x57FF (  1 Sector, 2 KB) -- Start of verifying flash -- Use CRC as verify method
 -- Checksum is not supported by this flash bank. Switched to CRC method. -- Use CRC as verify method -- Checksum is not supported by this flash bank. Switched to CRC method. -- End of verifying flash -- Start of restoring -- Restoring RAMCode -- Restore target -- Restore memory -- Restoring CPU registers -- End of restoring -- Bank 0 @ 0x00000000: 2 ranges affected (6144 bytes)
 -- Total time needed: 0.239s (Prepare: 0.038s, Compare: 0.045s, Erase: 0.025s, Program: 0.122s, Verify: 0.002s, Restore: 0.005s)  returns 0x1800 (0242ms, 0712ms total)
T4CD0 000:857 JLINK_ExecCommand("SetResetType = 0", ...).   returns 0x00 (0000ms, 0712ms total)
T4CD0 000:857 JLINK_ExecCommand("SetResetPulseLen = 200", ...).   returns 0xC8 (0000ms, 0712ms total)
T4CD0 000:857 JLINK_SetResetDelay(0) (0000ms, 0712ms total)
T4CD0 000:857 JLINK_ResetPullsRESET(ON) (0000ms, 0712ms total)
T4CD0 000:857 JLINK_Reset() -- CPU_WriteMem(4 bytes @ 0xE000EDF0) -- CPU_WriteMem(4 bytes @ 0xE000EDFC)Reset: Halt core after reset via DEMCR.VC_CORERESET. >0x35 TIF>Reset: Reset device via AIRCR.SYSRESETREQ. -- CPU_WriteMem(4 bytes @ 0xE000ED0C) >0x0D TIF> >0x28 TIF> -- CPU_ReadMem(4 bytes @ 0xE000EDF0) -- CPU_ReadMem(4 bytes @ 0xE000EDF0) -- CPU_WriteMem(4 bytes @ 0xE000EDF0) -- CPU_WriteMem(4 bytes @ 0xE000EDFC) -- CPU_ReadMem(4 bytes @ 0xE000EDF0)AfterResetTarget()
 -- CPU_WriteMem(4 bytes @ 0xE0002000) -- CPU_ReadMem(4 bytes @ 0xE000EDFC) -- CPU_ReadMem(4 bytes @ 0xE0001000) (0114ms, 0826ms total)
T4CD0 000:971 JLINK_IsHalted()  returns TRUE (0000ms, 0826ms total)
T4CD0 000:972 JLINK_ReadMemU32(0x00000000, 0x0001 Items, ...) -- Read from flash cache (4 bytes @ 0x00000000) - Data: F8 FF 00 20  returns 1 (0000ms, 0826ms total)
T4CD0 000:972 JLINK_ReadMemU32(0x00000004, 0x0001 Items, ...) -- Read from flash cache (4 bytes @ 0x00000004) - Data: 11 04 00 00  returns 1 (0000ms, 0826ms total)
T4CD0 000:972 JLINK_ReadRegs(NumRegs = 1, Indexes: 15) -- R15 (PC)=0x410  returns 0x00 (0000ms, 0826ms total)
T4CD0 000:972 JLINK_WriteReg(R15 (PC), 0x00000410)  returns 0x00 (0000ms, 0826ms total)
T4CD0 000:972 JLINK_ReadRegs(NumRegs = 1, Indexes: 17) -- MSP=0x2000FFF8  returns 0x00 (0000ms, 0826ms total)
T4CD0 000:972 JLINK_ReadRegs(NumRegs = 1, Indexes: 18) -- PSP=0x00  returns 0x00 (0000ms, 0826ms total)
T4CD0 000:972 JLINK_ReadRegs(NumRegs = 1, Indexes: 20) -- CFBP=0x00  returns 0x00 (0000ms, 0826ms total)
T4CD0 000:972 JLINK_WriteReg(MSP, 0x2000FFF8)  returns 0x00 (0000ms, 0826ms total)
T4CD0 000:972 JLINK_ReadRegs(NumRegs = 1, Indexes: 0) -- R0=0x00  returns 0x00 (0000ms, 0826ms total)
T4CD0 000:972 JLINK_ReadRegs(NumRegs = 1, Indexes: 1) -- R1=0x00  returns 0x00 (0000ms, 0826ms total)
T4CD0 000:972 JLINK_ReadRegs(NumRegs = 1, Indexes: 2) -- R2=0x00  returns 0x00 (0000ms, 0826ms total)
T4CD0 000:972 JLINK_ReadRegs(NumRegs = 1, Indexes: 3) -- R3=0x00  returns 0x00 (0000ms, 0826ms total)
T4CD0 000:972 JLINK_ReadRegs(NumRegs = 1, Indexes: 4) -- R4=0x00  returns 0x00 (0000ms, 0826ms total)
T4CD0 000:972 JLINK_ReadRegs(NumRegs = 1, Indexes: 5) -- R5=0x00  returns 0x00 (0000ms, 0826ms total)
T4CD0 000:972 JLINK_ReadRegs(NumRegs = 1, Indexes: 6) -- R6=0x00  returns 0x00 (0000ms, 0826ms total)
T4CD0 000:972 JLINK_ReadRegs(NumRegs = 1, Indexes: 7) -- R7=0x00  returns 0x00 (0000ms, 0826ms total)
T4CD0 000:972 JLINK_ReadRegs(NumRegs = 1, Indexes: 8) -- R8=0x00  returns 0x00 (0000ms, 0826ms total)
T4CD0 000:972 JLINK_ReadRegs(NumRegs = 1, Indexes: 9) -- R9=0x00  returns 0x00 (0000ms, 0826ms total)
T4CD0 000:972 JLINK_ReadRegs(NumRegs = 1, Indexes: 10) -- R10=0x00  returns 0x00 (0000ms, 0826ms total)
T4CD0 000:972 JLINK_ReadRegs(NumRegs = 1, Indexes: 11) -- R11=0x00  returns 0x00 (0000ms, 0826ms total)
T4CD0 000:972 JLINK_ReadRegs(NumRegs = 1, Indexes: 12) -- R12=0x00  returns 0x00 (0000ms, 0826ms total)
T4CD0 000:972 JLINK_ReadRegs(NumRegs = 1, Indexes: 17) -- MSP=0x2000FFF8  returns 0x00 (0000ms, 0826ms total)
T4CD0 000:972 JLINK_ReadRegs(NumRegs = 1, Indexes: 18) -- PSP=0x00  returns 0x00 (0000ms, 0826ms total)
T4CD0 000:972 JLINK_ReadRegs(NumRegs = 1, Indexes: 14) -- R14=0xFFFFFFFF  returns 0x00 (0000ms, 0826ms total)
T4CD0 000:972 JLINK_ReadRegs(NumRegs = 1, Indexes: 15) -- R15 (PC)=0x410  returns 0x00 (0000ms, 0826ms total)
T4CD0 000:972 JLINK_ReadRegs(NumRegs = 1, Indexes: 16) -- XPSR=0x1000000  returns 0x00 (0000ms, 0826ms total)
T4CD0 000:972 JLINK_ReadRegs(NumRegs = 1, Indexes: 20) -- CFBP=0x00  returns 0x00 (0000ms, 0826ms total)
T4CD0 000:972 JLINK_WriteReg(XPSR, 0x01000000)  returns 0x00 (0000ms, 0826ms total)
T4CD0 000:972 JLINK_ReadMemU32(0xE000EDFC, 0x0001 Items, ...) -- CPU_ReadMem(4 bytes @ 0xE000EDFC) - Data: 00 00 00 01  returns 1 (0001ms, 0827ms total)
T4CD0 000:973 JLINK_WriteU32(0xE000EDFC, 0x01000000)  returns 0 (0000ms, 0827ms total)
T4CD0 000:973 JLINK_ReadMemU32(0xE0001004, 0x0001 Items, ...) -- CPU_ReadMem(4 bytes @ 0xE0001004) - Data: 14 4D AB DE  returns 1 (0001ms, 0828ms total)
T4CD0 000:974 JLINK_ReadMemU32(0xE0001004, 0x0001 Items, ...) - Data: 14 4D AB DE  returns 1 (0000ms, 0828ms total)
T4CD0 000:974 JLINK_ReadMemU16(0x40052000, 0x0001 Items, ...) -- CPU_ReadMem(2 bytes @ 0x40052000) - Data: D2 01  returns 1 (0000ms, 0828ms total)
T4CD0 000:974 JLINK_GetEmuCaps()  returns 0xF9FF7BFF (0000ms, 0828ms total)
T4CD0 000:974 JLINK_GetEmuCaps()  returns 0xF9FF7BFF (0000ms, 0828ms total)
T4CD0 000:975 JLINK_ReadRegs(NumRegs = 1, Indexes: 15) -- R15 (PC)=0x410  returns 0x00 (0000ms, 0828ms total)
T4CD0 000:975 JLINK_ReadMemU16(0x00002BE4, 0x0001 Items, ...) -- Read from flash cache (2 bytes @ 0x00002BE4) - Data: 70 B5  returns 1 (0000ms, 0828ms total)
T4CD0 000:975 JLINK_GetEmuCaps()  returns 0xF9FF7BFF (0000ms, 0828ms total)
T4CD0 000:975 JLINK_GetEmuCaps()  returns 0xF9FF7BFF (0000ms, 0828ms total)
T4CD0 000:975 JLINK_SetBPEx(Addr = 0x00002BE4, Type = 0xFFFFFFF2)  returns 0x00000001 (0000ms, 0828ms total)
T4CD0 000:975 JLINK_GetEmuCaps()  returns 0xF9FF7BFF (0000ms, 0828ms total)
T4CD0 000:976 JLINK_GetEmuCaps()  returns 0xF9FF7BFF (0000ms, 0829ms total)
T4CD0 000:976 JLINK_WriteVectorCatch(0x00000000)  returns 0x00 (0000ms, 0829ms total)
T4CD0 001:079 JLINK_ReadMemU32(0x00000040, 0x0001 Items, ...) -- Read from flash cache (4 bytes @ 0x00000040) - Data: 0F 13 00 00  returns 1 (0000ms, 0829ms total)
T4CD0 001:079 JLINK_ReadMemU32(0x00000044, 0x0001 Items, ...) -- Read from flash cache (4 bytes @ 0x00000044) - Data: 0F 13 00 00  returns 1 (0000ms, 0829ms total)
T4CD0 001:079 JLINK_ReadMemU32(0x00000048, 0x0001 Items, ...) -- Read from flash cache (4 bytes @ 0x00000048) - Data: 0F 13 00 00  returns 1 (0000ms, 0829ms total)
T4CD0 001:079 JLINK_ReadMemU32(0x0000004C, 0x0001 Items, ...) -- Read from flash cache (4 bytes @ 0x0000004C) - Data: 0F 13 00 00  returns 1 (0000ms, 0829ms total)
T4CD0 001:079 JLINK_ReadMemU32(0x00000050, 0x0001 Items, ...) -- Read from flash cache (4 bytes @ 0x00000050) - Data: 0F 13 00 00  returns 1 (0000ms, 0829ms total)
T4CD0 001:079 JLINK_ReadMemU32(0x00000054, 0x0001 Items, ...) -- Read from flash cache (4 bytes @ 0x00000054) - Data: 0F 13 00 00  returns 1 (0000ms, 0829ms total)
T4CD0 001:079 JLINK_ReadMemU32(0x00000058, 0x0001 Items, ...) -- Read from flash cache (4 bytes @ 0x00000058) - Data: 0F 13 00 00  returns 1 (0000ms, 0829ms total)
T4CD0 001:079 JLINK_ReadMemU32(0x0000005C, 0x0001 Items, ...) -- Read from flash cache (4 bytes @ 0x0000005C) - Data: 0F 13 00 00  returns 1 (0000ms, 0829ms total)
T4CD0 001:079 JLINK_ReadMemU32(0x00000060, 0x0001 Items, ...) -- Read from flash cache (4 bytes @ 0x00000060) - Data: 0F 13 00 00  returns 1 (0000ms, 0829ms total)
T4CD0 001:079 JLINK_ReadMemU32(0x00000064, 0x0001 Items, ...) -- Read from flash cache (4 bytes @ 0x00000064) - Data: 0F 13 00 00  returns 1 (0000ms, 0829ms total)
T4CD0 001:079 JLINK_ReadMemU32(0x00000068, 0x0001 Items, ...) -- Read from flash cache (4 bytes @ 0x00000068) - Data: 0F 13 00 00  returns 1 (0000ms, 0829ms total)
T4CD0 001:079 JLINK_ReadMemU32(0x0000006C, 0x0001 Items, ...) -- Read from flash cache (4 bytes @ 0x0000006C) - Data: 0F 13 00 00  returns 1 (0000ms, 0829ms total)
T4CD0 001:079 JLINK_ReadMemU32(0x00000070, 0x0001 Items, ...) -- Read from flash cache (4 bytes @ 0x00000070) - Data: 0F 13 00 00  returns 1 (0000ms, 0829ms total)
T4CD0 001:079 JLINK_ReadMemU32(0x00000074, 0x0001 Items, ...) -- Read from flash cache (4 bytes @ 0x00000074) - Data: 0F 13 00 00  returns 1 (0000ms, 0829ms total)
T4CD0 001:079 JLINK_ReadMemU32(0x00000078, 0x0001 Items, ...) -- Read from flash cache (4 bytes @ 0x00000078) - Data: 0F 13 00 00  returns 1 (0000ms, 0829ms total)
T4CD0 001:079 JLINK_ReadMemU32(0x0000007C, 0x0001 Items, ...) -- Read from flash cache (4 bytes @ 0x0000007C) - Data: 0F 13 00 00  returns 1 (0000ms, 0829ms total)
T4CD0 001:079 JLINK_ReadMemU32(0x00000080, 0x0001 Items, ...) -- Read from flash cache (4 bytes @ 0x00000080) - Data: 0F 13 00 00  returns 1 (0000ms, 0829ms total)
T4CD0 001:079 JLINK_ReadMemU32(0x00000088, 0x0001 Items, ...) -- Read from flash cache (4 bytes @ 0x00000088) - Data: 0F 13 00 00  returns 1 (0000ms, 0829ms total)
T4CD0 001:079 JLINK_ReadMemU32(0x0000008C, 0x0001 Items, ...) -- Read from flash cache (4 bytes @ 0x0000008C) - Data: 0F 13 00 00  returns 1 (0000ms, 0829ms total)
T4CD0 001:079 JLINK_ReadMemU32(0x000000B4, 0x0001 Items, ...) -- Read from flash cache (4 bytes @ 0x000000B4) - Data: 0F 13 00 00  returns 1 (0000ms, 0829ms total)
T4CD0 001:079 JLINK_ReadMemU32(0x000000B8, 0x0001 Items, ...) -- Read from flash cache (4 bytes @ 0x000000B8) - Data: 0F 13 00 00  returns 1 (0000ms, 0829ms total)
T4CD0 001:079 JLINK_ReadMemU32(0x000000BC, 0x0001 Items, ...) -- Read from flash cache (4 bytes @ 0x000000BC) - Data: 0F 13 00 00  returns 1 (0000ms, 0829ms total)
T4CD0 001:079 JLINK_ReadMemU32(0x000000C0, 0x0001 Items, ...) -- Read from flash cache (4 bytes @ 0x000000C0) - Data: 0F 13 00 00  returns 1 (0000ms, 0829ms total)
T4CD0 001:079 JLINK_ReadMemU32(0x000000C4, 0x0001 Items, ...) -- Read from flash cache (4 bytes @ 0x000000C4) - Data: 0F 13 00 00  returns 1 (0000ms, 0829ms total)
T4CD0 001:079 JLINK_ReadMemU32(0x000000C8, 0x0001 Items, ...) -- Read from flash cache (4 bytes @ 0x000000C8) - Data: 0F 13 00 00  returns 1 (0000ms, 0829ms total)
T4CD0 001:079 JLINK_ReadMemU32(0x000000D4, 0x0001 Items, ...) -- Read from flash cache (4 bytes @ 0x000000D4) - Data: 0F 13 00 00  returns 1 (0000ms, 0829ms total)
T4CD0 001:079 JLINK_ReadMemU32(0x000000D8, 0x0001 Items, ...) -- Read from flash cache (4 bytes @ 0x000000D8) - Data: 0F 13 00 00  returns 1 (0000ms, 0829ms total)
T4CD0 001:079 JLINK_ReadMemU32(0x000000DC, 0x0001 Items, ...) -- Read from flash cache (4 bytes @ 0x000000DC) - Data: 0F 13 00 00  returns 1 (0000ms, 0829ms total)
T4CD0 001:079 JLINK_ReadMemU32(0x000000E0, 0x0001 Items, ...) -- Read from flash cache (4 bytes @ 0x000000E0) - Data: 0F 13 00 00  returns 1 (0000ms, 0829ms total)
T4CD0 001:079 JLINK_ReadMemU32(0x000000E4, 0x0001 Items, ...) -- Read from flash cache (4 bytes @ 0x000000E4) - Data: 0F 13 00 00  returns 1 (0000ms, 0829ms total)
T4CD0 001:079 JLINK_ReadMemU32(0x000000E8, 0x0001 Items, ...) -- Read from flash cache (4 bytes @ 0x000000E8) - Data: 0F 13 00 00  returns 1 (0000ms, 0829ms total)
T4CD0 001:079 JLINK_ReadMemU32(0x000000A8, 0x0001 Items, ...) -- Read from flash cache (4 bytes @ 0x000000A8) - Data: 0F 13 00 00  returns 1 (0000ms, 0829ms total)
T4CD0 001:079 JLINK_ReadMemU32(0x000000AC, 0x0001 Items, ...) -- Read from flash cache (4 bytes @ 0x000000AC) - Data: 0F 13 00 00  returns 1 (0000ms, 0829ms total)
T4CD0 001:079 JLINK_ReadMemU32(0x000000B0, 0x0001 Items, ...) -- Read from flash cache (4 bytes @ 0x000000B0) - Data: 0F 13 00 00  returns 1 (0000ms, 0829ms total)
T4CD0 001:079 JLINK_ReadMemU32(0x0000017C, 0x0001 Items, ...) -- Read from flash cache (4 bytes @ 0x0000017C) - Data: 0F 13 00 00  returns 1 (0000ms, 0829ms total)
T4CD0 001:079 JLINK_ReadMemU32(0x00000168, 0x0001 Items, ...) -- Read from flash cache (4 bytes @ 0x00000168) - Data: 0F 13 00 00  returns 1 (0000ms, 0829ms total)
T4CD0 001:079 JLINK_ReadMemU32(0x00000160, 0x0001 Items, ...) -- Read from flash cache (4 bytes @ 0x00000160) - Data: 0F 13 00 00  returns 1 (0000ms, 0829ms total)
T4CD0 001:079 JLINK_ReadMemU32(0x00000150, 0x0001 Items, ...) -- Read from flash cache (4 bytes @ 0x00000150) - Data: 51 50 00 00  returns 1 (0000ms, 0829ms total)
T4CD0 001:079 JLINK_ReadMemU32(0x00000154, 0x0001 Items, ...) -- Read from flash cache (4 bytes @ 0x00000154) - Data: 5D 50 00 00  returns 1 (0000ms, 0829ms total)
T4CD0 001:080 JLINK_ReadMemU32(0x00000158, 0x0001 Items, ...) -- Read from flash cache (4 bytes @ 0x00000158) - Data: 69 50 00 00  returns 1 (0000ms, 0830ms total)
T4CD0 001:080 JLINK_ReadMemU32(0x0000015C, 0x0001 Items, ...) -- Read from flash cache (4 bytes @ 0x0000015C) - Data: 75 50 00 00  returns 1 (0000ms, 0830ms total)
T4CD0 001:080 JLINK_ReadMemU32(0x00000138, 0x0001 Items, ...) -- Read from flash cache (4 bytes @ 0x00000138) - Data: A7 37 00 00  returns 1 (0000ms, 0830ms total)
T4CD0 001:080 JLINK_ReadMemU32(0x0000013C, 0x0001 Items, ...) -- Read from flash cache (4 bytes @ 0x0000013C) - Data: B5 37 00 00  returns 1 (0000ms, 0830ms total)
T4CD0 001:080 JLINK_ReadMemU32(0x00000140, 0x0001 Items, ...) -- Read from flash cache (4 bytes @ 0x00000140) - Data: C3 37 00 00  returns 1 (0000ms, 0830ms total)
T4CD0 001:080 JLINK_ReadMemU32(0x00000124, 0x0001 Items, ...) -- Read from flash cache (4 bytes @ 0x00000124) - Data: 0F 13 00 00  returns 1 (0000ms, 0830ms total)
T4CD0 001:080 JLINK_ReadMemU32(0x00000128, 0x0001 Items, ...) -- Read from flash cache (4 bytes @ 0x00000128) - Data: 0F 13 00 00  returns 1 (0000ms, 0830ms total)
T4CD0 001:080 JLINK_ReadMemU32(0x00000148, 0x0001 Items, ...) -- Read from flash cache (4 bytes @ 0x00000148) - Data: 0F 13 00 00  returns 1 (0000ms, 0830ms total)
T4CD0 001:080 JLINK_ReadMemU32(0x00000194, 0x0001 Items, ...) -- Read from flash cache (4 bytes @ 0x00000194) - Data: 1D 3F 00 00  returns 1 (0000ms, 0830ms total)
T4CD0 001:080 JLINK_ReadMemU32(0x0000018C, 0x0001 Items, ...) -- Read from flash cache (4 bytes @ 0x0000018C) - Data: 0F 13 00 00  returns 1 (0000ms, 0830ms total)
T4CD0 001:080 JLINK_ReadMemU32(0x00000098, 0x0001 Items, ...) -- Read from flash cache (4 bytes @ 0x00000098) - Data: 0F 13 00 00  returns 1 (0000ms, 0830ms total)
T4CD0 001:080 JLINK_ReadMemU32(0x00000144, 0x0001 Items, ...) -- Read from flash cache (4 bytes @ 0x00000144) - Data: 0F 13 00 00  returns 1 (0000ms, 0830ms total)
T4CD0 001:080 JLINK_ReadMemU32(0x000000A0, 0x0001 Items, ...) -- Read from flash cache (4 bytes @ 0x000000A0) - Data: 0F 13 00 00  returns 1 (0000ms, 0830ms total)
T4CD0 001:080 JLINK_ReadMemU32(0x000000A4, 0x0001 Items, ...) -- Read from flash cache (4 bytes @ 0x000000A4) - Data: 0F 13 00 00  returns 1 (0000ms, 0830ms total)
T4CD0 001:080 JLINK_ReadMemU32(0x000000F4, 0x0001 Items, ...) -- Read from flash cache (4 bytes @ 0x000000F4) - Data: A9 21 00 00  returns 1 (0000ms, 0830ms total)
T4CD0 001:080 JLINK_ReadMemU32(0x000000F8, 0x0001 Items, ...) -- Read from flash cache (4 bytes @ 0x000000F8) - Data: 0F 13 00 00  returns 1 (0000ms, 0830ms total)
T4CD0 001:080 JLINK_ReadMemU32(0x000000FC, 0x0001 Items, ...) -- Read from flash cache (4 bytes @ 0x000000FC) - Data: CD 21 00 00  returns 1 (0000ms, 0830ms total)
T4CD0 001:080 JLINK_ReadMemU32(0x00000100, 0x0001 Items, ...) -- Read from flash cache (4 bytes @ 0x00000100) - Data: 0F 13 00 00  returns 1 (0000ms, 0830ms total)
T4CD0 001:080 JLINK_ReadMemU32(0x00000104, 0x0001 Items, ...) -- Read from flash cache (4 bytes @ 0x00000104) - Data: F1 21 00 00  returns 1 (0000ms, 0830ms total)
T4CD0 001:080 JLINK_ReadMemU32(0x00000108, 0x0001 Items, ...) -- Read from flash cache (4 bytes @ 0x00000108) - Data: 0F 13 00 00  returns 1 (0000ms, 0830ms total)
T4CD0 001:080 JLINK_ReadMemU32(0x0000010C, 0x0001 Items, ...) -- Read from flash cache (4 bytes @ 0x0000010C) - Data: 15 22 00 00  returns 1 (0000ms, 0830ms total)
T4CD0 001:080 JLINK_ReadMemU32(0x00000110, 0x0001 Items, ...) -- Read from flash cache (4 bytes @ 0x00000110) - Data: 0F 13 00 00  returns 1 (0000ms, 0830ms total)
T4CD0 001:080 JLINK_ReadMemU32(0x00000114, 0x0001 Items, ...) -- Read from flash cache (4 bytes @ 0x00000114) - Data: 39 22 00 00  returns 1 (0000ms, 0830ms total)
T4CD0 001:080 JLINK_ReadMemU32(0x00000118, 0x0001 Items, ...) -- Read from flash cache (4 bytes @ 0x00000118) - Data: 0F 13 00 00  returns 1 (0000ms, 0830ms total)
T4CD0 001:080 JLINK_ReadMemU32(0x0000011C, 0x0001 Items, ...) -- Read from flash cache (4 bytes @ 0x0000011C) - Data: B5 26 00 00  returns 1 (0000ms, 0830ms total)
T4CD0 001:080 JLINK_ReadMemU32(0x00000120, 0x0001 Items, ...) -- Read from flash cache (4 bytes @ 0x00000120) - Data: 0F 13 00 00  returns 1 (0000ms, 0830ms total)
T4CD0 001:080 JLINK_ReadMemU32(0x00000164, 0x0001 Items, ...) -- Read from flash cache (4 bytes @ 0x00000164) - Data: 0F 13 00 00  returns 1 (0000ms, 0830ms total)
T4CD0 001:080 JLINK_ReadMemU32(0x0000012C, 0x0001 Items, ...) -- Read from flash cache (4 bytes @ 0x0000012C) - Data: 0F 13 00 00  returns 1 (0000ms, 0830ms total)
T4CD0 001:080 JLINK_ReadMemU32(0x00000130, 0x0001 Items, ...) -- Read from flash cache (4 bytes @ 0x00000130) - Data: 0F 13 00 00  returns 1 (0000ms, 0830ms total)
T4CD0 001:080 JLINK_ReadMemU32(0x00000134, 0x0001 Items, ...) -- Read from flash cache (4 bytes @ 0x00000134) - Data: 0F 13 00 00  returns 1 (0000ms, 0830ms total)
T4CD0 001:080 JLINK_ReadMemU32(0x00000094, 0x0001 Items, ...) -- Read from flash cache (4 bytes @ 0x00000094) - Data: 0F 13 00 00  returns 1 (0000ms, 0830ms total)
T4CD0 001:080 JLINK_ReadMemU32(0x00000090, 0x0001 Items, ...) -- Read from flash cache (4 bytes @ 0x00000090) - Data: 0F 13 00 00  returns 1 (0000ms, 0830ms total)
T4CD0 001:080 JLINK_ReadMemU32(0x0000009C, 0x0001 Items, ...) -- Read from flash cache (4 bytes @ 0x0000009C) - Data: 0F 13 00 00  returns 1 (0000ms, 0830ms total)
T4CD0 001:080 JLINK_ReadMemU32(0x00000180, 0x0001 Items, ...) -- Read from flash cache (4 bytes @ 0x00000180) - Data: 0F 13 00 00  returns 1 (0000ms, 0830ms total)
T4CD0 001:080 JLINK_ReadMemU32(0x0000016C, 0x0001 Items, ...) -- Read from flash cache (4 bytes @ 0x0000016C) - Data: 0F 13 00 00  returns 1 (0000ms, 0830ms total)
T4CD0 001:080 JLINK_ReadMemU32(0x00000170, 0x0001 Items, ...) -- Read from flash cache (4 bytes @ 0x00000170) - Data: 0F 13 00 00  returns 1 (0000ms, 0830ms total)
T4CD0 001:080 JLINK_ReadMemU32(0x00000174, 0x0001 Items, ...) -- Read from flash cache (4 bytes @ 0x00000174) - Data: 0F 13 00 00  returns 1 (0000ms, 0830ms total)
T4CD0 001:080 JLINK_ReadMemU32(0x00000178, 0x0001 Items, ...) -- Read from flash cache (4 bytes @ 0x00000178) - Data: 0F 13 00 00  returns 1 (0000ms, 0830ms total)
T4CD0 001:080 JLINK_ReadMemU32(0x00000184, 0x0001 Items, ...) -- Read from flash cache (4 bytes @ 0x00000184) - Data: 0F 13 00 00  returns 1 (0000ms, 0830ms total)
T4CD0 001:080 JLINK_ReadMemU32(0x00000188, 0x0001 Items, ...) -- Read from flash cache (4 bytes @ 0x00000188) - Data: 0F 13 00 00  returns 1 (0000ms, 0830ms total)
T4CD0 001:080 JLINK_ReadMemU32(0x0000019C, 0x0001 Items, ...) -- Read from flash cache (4 bytes @ 0x0000019C) - Data: D1 41 00 00  returns 1 (0000ms, 0830ms total)
T4CD0 001:080 JLINK_ReadMemU32(0x000001A0, 0x0001 Items, ...) -- Read from flash cache (4 bytes @ 0x000001A0) - Data: 01 42 00 00  returns 1 (0000ms, 0830ms total)
T4CD0 001:080 JLINK_ReadMemU32(0x000001A4, 0x0001 Items, ...) -- Read from flash cache (4 bytes @ 0x000001A4) - Data: C5 4F 00 00  returns 1 (0000ms, 0830ms total)
T4CD0 001:080 JLINK_ReadMemU32(0x000001A8, 0x0001 Items, ...) -- Read from flash cache (4 bytes @ 0x000001A8) - Data: 61 42 00 00  returns 1 (0000ms, 0830ms total)
T4CD0 001:081 JLINK_ReadMemU32(0x000001AC, 0x0001 Items, ...) -- Read from flash cache (4 bytes @ 0x000001AC) - Data: 31 42 00 00  returns 1 (0000ms, 0831ms total)
T4CD0 001:081 JLINK_ReadMemU32(0x00000008, 0x0001 Items, ...) -- Read from flash cache (4 bytes @ 0x00000008) - Data: 0F 13 00 00  returns 1 (0000ms, 0831ms total)
T4CD0 001:081 JLINK_ReadMemU32(0x0000000C, 0x0001 Items, ...) -- Read from flash cache (4 bytes @ 0x0000000C) - Data: 0F 13 00 00  returns 1 (0000ms, 0831ms total)
T4CD0 001:081 JLINK_ReadMemU32(0x00000010, 0x0001 Items, ...) -- Read from flash cache (4 bytes @ 0x00000010) - Data: 0F 13 00 00  returns 1 (0000ms, 0831ms total)
T4CD0 001:081 JLINK_ReadMemU32(0x00000014, 0x0001 Items, ...) -- Read from flash cache (4 bytes @ 0x00000014) - Data: 0F 13 00 00  returns 1 (0000ms, 0831ms total)
T4CD0 001:081 JLINK_ReadMemU32(0x00000018, 0x0001 Items, ...) -- Read from flash cache (4 bytes @ 0x00000018) - Data: 0F 13 00 00  returns 1 (0000ms, 0831ms total)
T4CD0 001:081 JLINK_ReadMemU32(0x0000002C, 0x0001 Items, ...) -- Read from flash cache (4 bytes @ 0x0000002C) - Data: 0F 13 00 00  returns 1 (0000ms, 0831ms total)
T4CD0 001:081 JLINK_ReadMemU32(0x00000030, 0x0001 Items, ...) -- Read from flash cache (4 bytes @ 0x00000030) - Data: 0F 13 00 00  returns 1 (0000ms, 0831ms total)
T4CD0 001:081 JLINK_ReadMemU32(0x00000038, 0x0001 Items, ...) -- Read from flash cache (4 bytes @ 0x00000038) - Data: 0F 13 00 00  returns 1 (0000ms, 0831ms total)
